T2C34 000:006.967   SEGGER J-Link V7.88 Log File
T2C34 000:007.110   DLL Compiled: Apr 28 2023 08:31:10
T2C34 000:007.118   Logging started @ 2023-05-28 23:36
T2C34 000:007.124 - 7.127ms
T2C34 000:007.136 JLINK_SetWarnOutHandler(...)
T2C34 000:007.145 - 0.011ms
T2C34 000:007.154 JLINK_OpenEx(...)
T2C34 000:011.400   Firmware: J-Link V9 compiled May  7 2021 16:26:12
T2C34 000:012.142   Firmware: J-Link V9 compiled May  7 2021 16:26:12
T2C34 000:012.343   Decompressing FW timestamp took 168 us
T2C34 000:019.792   Hardware: V9.70
T2C34 000:019.827   S/N: 150711155
T2C34 000:019.836   OEM: SEGGER
T2C34 000:019.845   Feature(s): GDB, RDI, FlashBP, FlashDL, JFlash
T2C34 000:029.503   TELNET listener socket opened on port 19021
T2C34 000:029.633   WEBSRV WEBSRV_Init(): Starting webserver thread(s)
T2C34 000:029.730   WEBSRV Failed to put socket into listener state (port 19080)
T2C34 000:029.880   WEBSRV Webserver running on local port 19081
T2C34 000:063.783 - 56.664ms returns "O.K."
T2C34 000:063.902 JLINK_GetEmuCaps()
T2C34 000:063.913 - 0.014ms returns 0xB9FF7BBF
T2C34 000:063.927 JLINK_TIF_GetAvailable(...)
T2C34 000:064.234 - 0.318ms
T2C34 000:064.277 JLINK_SetErrorOutHandler(...)
T2C34 000:064.286 - 0.012ms
T2C34 000:064.315 JLINK_ExecCommand("ProjectFile = "F:\Embedded\Brushless\STM32_Lib\STM32_ST_ML\ST_ML\MDK-ARM\JLinkSettings.ini"", ...). 
T2C34 000:079.368   Ref file found at: D:\Keil5\keil5forSTM32\ARM\Segger\JLinkDevices.ref
T2C34 000:079.573   REF file references invalid XML file: D:\Keil5\JScope\JLink\JLinkDevices.xml
T2C34 000:079.753 - 15.444ms returns 0x00
T2C34 000:083.955 JLINK_ExecCommand("Device = STM32F407VETx", ...). 
T2C34 000:088.134   Device "STM32F407VE" selected.
T2C34 000:088.546 - 4.550ms returns 0x00
T2C34 000:088.568 JLINK_ExecCommand("DisableConnectionTimeout", ...). 
T2C34 000:088.580 - 0.005ms returns 0x01
T2C34 000:088.590 JLINK_GetHardwareVersion()
T2C34 000:088.597 - 0.010ms returns 97000
T2C34 000:088.610 JLINK_GetDLLVersion()
T2C34 000:088.616 - 0.009ms returns 78800
T2C34 000:088.625 JLINK_GetOEMString(...)
T2C34 000:088.634 JLINK_GetFirmwareString(...)
T2C34 000:088.640 - 0.009ms
T2C34 000:102.154 JLINK_GetDLLVersion()
T2C34 000:102.181 - 0.030ms returns 78800
T2C34 000:102.192 JLINK_GetCompileDateTime()
T2C34 000:102.198 - 0.009ms
T2C34 000:105.107 JLINK_GetFirmwareString(...)
T2C34 000:105.123 - 0.019ms
T2C34 000:107.889 JLINK_GetHardwareVersion()
T2C34 000:107.917 - 0.031ms returns 97000
T2C34 000:113.432 JLINK_GetSN()
T2C34 000:113.547 - 0.124ms returns 150711155
T2C34 000:117.992 JLINK_GetOEMString(...)
T2C34 000:123.667 JLINK_TIF_Select(JLINKARM_TIF_SWD)
T2C34 000:125.003 - 1.351ms returns 0x00
T2C34 000:125.043 JLINK_HasError()
T2C34 000:125.062 JLINK_SetSpeed(5000)
T2C34 000:125.195 - 0.140ms
T2C34 000:125.221 JLINK_GetId()
T2C34 000:144.184   InitTarget() start
T2C34 000:144.219    J-Link Script File: Executing InitTarget()
T2C34 000:160.382   SWD selected. Executing JTAG -> SWD switching sequence.
T2C34 000:178.736   DAP initialized successfully.
T2C34 000:186.620   InitTarget() end - Took 39.7ms
T2C34 000:190.158   Found SW-DP with ID 0x2BA01477
T2C34 000:195.189   DPIDR: 0x2BA01477
T2C34 000:197.843   CoreSight SoC-400 or earlier
T2C34 000:200.471   Scanning AP map to find all available APs
T2C34 000:205.465   AP[1]: Stopped AP scan as end of AP map has been reached
T2C34 000:209.383   AP[0]: AHB-AP (IDR: 0x24770011)
T2C34 000:212.183   Iterating through AP map to find AHB-AP to use
T2C34 000:215.880   AP[0]: Core found
T2C34 000:219.044   AP[0]: AHB-AP ROM base: 0xE00FF000
T2C34 000:225.276   CPUID register: 0x410FC241. Implementer code: 0x41 (ARM)
T2C34 000:230.536   Found Cortex-M4 r0p1, Little endian.
T2C34 000:231.209   -- Max. mem block: 0x0000FF68
T2C34 000:232.128   CPU_ReadMem(4 bytes @ 0xE000EDF0)
T2C34 000:232.431   CPU_ReadMem(4 bytes @ 0xE0002000)
T2C34 000:235.763   FPUnit: 6 code (BP) slots and 2 literal slots
T2C34 000:235.792   CPU_ReadMem(4 bytes @ 0xE000EDFC)
T2C34 000:236.125   CPU_ReadMem(4 bytes @ 0xE0001000)
T2C34 000:236.466   CPU_WriteMem(4 bytes @ 0xE0001000)
T2C34 000:236.763   CPU_ReadMem(4 bytes @ 0xE000ED88)
T2C34 000:237.119   CPU_WriteMem(4 bytes @ 0xE000ED88)
T2C34 000:237.463   CPU_ReadMem(4 bytes @ 0xE000ED88)
T2C34 000:237.868   CPU_WriteMem(4 bytes @ 0xE000ED88)
T2C34 000:241.166   CoreSight components:
T2C34 000:244.944   ROMTbl[0] @ E00FF000
T2C34 000:244.977   CPU_ReadMem(64 bytes @ 0xE00FF000)
T2C34 000:245.626   CPU_ReadMem(32 bytes @ 0xE000EFE0)
T2C34 000:251.263   [0][0]: E000E000 CID B105E00D PID 000BB00C SCS-M7
T2C34 000:251.293   CPU_ReadMem(32 bytes @ 0xE0001FE0)
T2C34 000:254.581   [0][1]: E0001000 CID B105E00D PID 003BB002 DWT
T2C34 000:254.607   CPU_ReadMem(32 bytes @ 0xE0002FE0)
T2C34 000:258.921   [0][2]: E0002000 CID B105E00D PID 002BB003 FPB
T2C34 000:258.954   CPU_ReadMem(32 bytes @ 0xE0000FE0)
T2C34 000:262.976   [0][3]: E0000000 CID B105E00D PID 003BB001 ITM
T2C34 000:263.008   CPU_ReadMem(32 bytes @ 0xE0040FE0)
T2C34 000:266.833   [0][4]: E0040000 CID B105900D PID 000BB9A1 TPIU
T2C34 000:266.864   CPU_ReadMem(32 bytes @ 0xE0041FE0)
T2C34 000:270.395   [0][5]: E0041000 CID B105900D PID 000BB925 ETM
T2C34 000:270.881 - 145.669ms returns 0x2BA01477
T2C34 000:270.934 JLINK_GetDLLVersion()
T2C34 000:270.942 - 0.030ms returns 78800
T2C34 000:270.971 JLINK_CORE_GetFound()
T2C34 000:270.997 - 0.029ms returns 0xE0000FF
T2C34 000:271.012 JLINK_GetDebugInfo(0x100 = JLINKARM_ROM_TABLE_ADDR_INDEX)
T2C34 000:271.020   Value=0xE00FF000
T2C34 000:271.029 - 0.020ms returns 0
T2C34 000:274.087 JLINK_GetDebugInfo(0x100 = JLINKARM_ROM_TABLE_ADDR_INDEX)
T2C34 000:274.132   Value=0xE00FF000
T2C34 000:274.142 - 0.059ms returns 0
T2C34 000:274.152 JLINK_GetDebugInfo(0x101 = JLINKARM_DEBUG_INFO_ETM_ADDR_INDEX)
T2C34 000:274.158   Value=0xE0041000
T2C34 000:274.168 - 0.019ms returns 0
T2C34 000:274.182 JLINK_ReadMemEx(0xE0041FD0, 0x20 Bytes, Flags = 0x02000004)
T2C34 000:274.217   CPU_ReadMem(32 bytes @ 0xE0041FD0)
T2C34 000:289.454   Data:  04 00 00 00 00 00 00 00 00 00 00 00 00 00 00 00 ...
T2C34 000:289.491 - 15.312ms returns 32 (0x20)
T2C34 000:289.525 JLINK_GetDebugInfo(0x102 = JLINKARM_DEBUG_INFO_MTB_ADDR_INDEX)
T2C34 000:289.533   Value=0x00000000
T2C34 000:289.561 - 0.052ms returns 0
T2C34 000:289.582 JLINK_GetDebugInfo(0x103 = JLINKARM_DEBUG_INFO_TPIU_ADDR_INDEX)
T2C34 000:289.589   Value=0xE0040000
T2C34 000:289.597 - 0.018ms returns 0
T2C34 000:289.621 JLINK_GetDebugInfo(0x104 = JLINKARM_DEBUG_INFO_ITM_ADDR_INDEX)
T2C34 000:289.627   Value=0xE0000000
T2C34 000:289.636 - 0.017ms returns 0
T2C34 000:289.643 JLINK_GetDebugInfo(0x105 = JLINKARM_DEBUG_INFO_DWT_ADDR_INDEX)
T2C34 000:289.650   Value=0xE0001000
T2C34 000:289.658 - 0.017ms returns 0
T2C34 000:289.666 JLINK_GetDebugInfo(0x106 = JLINKARM_DEBUG_INFO_FPB_ADDR_INDEX)
T2C34 000:289.672   Value=0xE0002000
T2C34 000:289.681 - 0.017ms returns 0
T2C34 000:289.689 JLINK_GetDebugInfo(0x107 = JLINKARM_DEBUG_INFO_NVIC_ADDR_INDEX)
T2C34 000:289.695   Value=0xE000E000
T2C34 000:289.703 - 0.017ms returns 0
T2C34 000:289.711 JLINK_GetDebugInfo(0x10C = JLINKARM_DEBUG_INFO_DBG_ADDR_INDEX)
T2C34 000:289.718   Value=0xE000EDF0
T2C34 000:289.726 - 0.017ms returns 0
T2C34 000:289.734 JLINK_GetDebugInfo(0x01 = Unknown)
T2C34 000:289.743   Value=0x00000001
T2C34 000:289.752 - 0.020ms returns 0
T2C34 000:289.760 JLINK_ReadMemU32(0xE000ED00, 0x1 Items)
T2C34 000:289.775   CPU_ReadMem(4 bytes @ 0xE000ED00)
T2C34 000:306.248   Data:  41 C2 0F 41
T2C34 000:306.288   Debug reg: CPUID
T2C34 000:306.297 - 16.540ms returns 1 (0x1)
T2C34 000:306.332 JLINK_GetDebugInfo(0x10F = JLINKARM_DEBUG_INFO_HAS_CORTEX_M_SECURITY_EXT_INDEX)
T2C34 000:306.380   Value=0x00000000
T2C34 000:306.389 - 0.060ms returns 0
T2C34 000:306.400 JLINK_HasError()
T2C34 000:306.412 JLINK_SetResetType(JLINKARM_CM3_RESET_TYPE_NORMAL)
T2C34 000:306.419 - 0.010ms returns JLINKARM_CM3_RESET_TYPE_NORMAL
T2C34 000:306.430 JLINK_Reset()
T2C34 000:324.006   CPU is running
T2C34 000:324.040   CPU_WriteMem(4 bytes @ 0xE000EDF0)
T2C34 000:340.786   CPU is running
T2C34 000:340.819   CPU_WriteMem(4 bytes @ 0xE000EDFC)
T2C34 000:360.645   Reset: Halt core after reset via DEMCR.VC_CORERESET.
T2C34 000:381.044   Reset: Reset device via AIRCR.SYSRESETREQ.
T2C34 000:381.075   CPU is running
T2C34 000:381.089   CPU_WriteMem(4 bytes @ 0xE000ED0C)
T2C34 000:435.468   CPU_ReadMem(4 bytes @ 0xE000EDF0)
T2C34 000:435.898   CPU_ReadMem(4 bytes @ 0xE000EDF0)
T2C34 000:438.664   CPU_WriteMem(4 bytes @ 0xE000EDFC)
T2C34 000:445.204   CPU_ReadMem(4 bytes @ 0xE000EDF0)
T2C34 000:447.871   CPU_WriteMem(4 bytes @ 0xE0002000)
T2C34 000:448.353   CPU_ReadMem(4 bytes @ 0xE000EDFC)
T2C34 000:448.802   CPU_ReadMem(4 bytes @ 0xE0001000)
T2C34 000:449.234 - 142.811ms
T2C34 000:449.282 JLINK_Halt()
T2C34 000:449.308 - 0.029ms returns 0x00
T2C34 000:449.336 JLINK_ReadMemU32(0xE000EDF0, 0x1 Items)
T2C34 000:449.349   CPU_ReadMem(4 bytes @ 0xE000EDF0)
T2C34 000:467.665   Data:  03 00 03 00
T2C34 000:467.703   Debug reg: DHCSR
T2C34 000:467.712 - 18.379ms returns 1 (0x1)
T2C34 000:467.784 JLINK_WriteU32_64(0xE000EDF0, 0xA05F0003)
T2C34 000:467.798   Debug reg: DHCSR
T2C34 000:468.112   CPU_WriteMem(4 bytes @ 0xE000EDF0)
T2C34 000:502.381 - 34.657ms returns 0 (0x00000000)
T2C34 000:502.550 JLINK_WriteU32_64(0xE000EDFC, 0x01000000)
T2C34 000:502.573   Debug reg: DEMCR
T2C34 000:502.614   CPU_WriteMem(4 bytes @ 0xE000EDFC)
T2C34 000:518.954 - 16.419ms returns 0 (0x00000000)
T2C34 000:533.841 JLINK_GetHWStatus(...)
T2C34 000:553.420 - 19.596ms returns 0
T2C34 000:562.720 JLINK_GetNumBPUnits(Type = 0xFFFFFF00)
T2C34 000:562.744 - 0.027ms returns 0x06
T2C34 000:562.754 JLINK_GetNumBPUnits(Type = 0xF0)
T2C34 000:562.760 - 0.009ms returns 0x2000
T2C34 000:562.769 JLINK_GetNumWPUnits()
T2C34 000:562.775 - 0.009ms returns 4
T2C34 000:570.929 JLINK_GetSpeed()
T2C34 000:570.946 - 0.020ms returns 4000
T2C34 000:580.049 JLINK_ReadMemU32(0xE000E004, 0x1 Items)
T2C34 000:580.182   CPU_ReadMem(4 bytes @ 0xE000E004)
T2C34 000:588.072   Data:  02 00 00 00
T2C34 000:588.117 - 8.072ms returns 1 (0x1)
T2C34 000:588.152 JLINK_ReadMemU32(0xE000E004, 0x1 Items)
T2C34 000:588.191   CPU_ReadMem(4 bytes @ 0xE000E004)
T2C34 000:604.822   Data:  02 00 00 00
T2C34 000:604.851 - 16.702ms returns 1 (0x1)
T2C34 000:604.894 JLINK_WriteMemEx(0xE0001000, 0x0000001C Bytes, Flags = 0x02000004)
T2C34 000:604.904   Data:  01 00 00 00 00 00 00 00 00 00 00 00 00 00 00 00 ...
T2C34 000:604.929   CPU_WriteMem(28 bytes @ 0xE0001000)
T2C34 000:639.511 - 34.636ms returns 0x1C
T2C34 000:639.631 JLINK_Halt()
T2C34 000:639.640 - 0.012ms returns 0x00
T2C34 000:639.650 JLINK_IsHalted()
T2C34 000:639.657 - 0.011ms returns TRUE
T2C34 000:644.235 JLINK_WriteMem(0x20000000, 0x188 Bytes, ...)
T2C34 000:644.252   Data:  00 BE 0A E0 0D 78 2D 06 68 40 08 24 40 00 00 D3 ...
T2C34 000:644.594   CPU_WriteMem(392 bytes @ 0x20000000)
T2C34 000:675.672 - 31.525ms returns 0x188
T2C34 000:676.026 JLINK_HasError()
T2C34 000:676.084 JLINK_WriteReg(R0, 0x08000000)
T2C34 000:676.126 - 0.055ms returns 0
T2C34 000:676.151 JLINK_WriteReg(R1, 0x007A1200)
T2C34 000:676.165 - 0.019ms returns 0
T2C34 000:676.179 JLINK_WriteReg(R2, 0x00000001)
T2C34 000:676.192 - 0.021ms returns 0
T2C34 000:676.208 JLINK_WriteReg(R3, 0x00000000)
T2C34 000:676.219 - 0.015ms returns 0
T2C34 000:676.231 JLINK_WriteReg(R4, 0x00000000)
T2C34 000:676.239 - 0.019ms returns 0
T2C34 000:676.264 JLINK_WriteReg(R5, 0x00000000)
T2C34 000:676.286 - 0.032ms returns 0
T2C34 000:676.313 JLINK_WriteReg(R6, 0x00000000)
T2C34 000:676.323 - 0.013ms returns 0
T2C34 000:676.333 JLINK_WriteReg(R7, 0x00000000)
T2C34 000:676.343 - 0.014ms returns 0
T2C34 000:676.354 JLINK_WriteReg(R8, 0x00000000)
T2C34 000:676.383 - 0.033ms returns 0
T2C34 000:676.394 JLINK_WriteReg(R9, 0x20000184)
T2C34 000:676.404 - 0.014ms returns 0
T2C34 000:676.415 JLINK_WriteReg(R10, 0x00000000)
T2C34 000:676.423 - 0.011ms returns 0
T2C34 000:676.432 JLINK_WriteReg(R11, 0x00000000)
T2C34 000:676.444 - 0.016ms returns 0
T2C34 000:676.456 JLINK_WriteReg(R12, 0x00000000)
T2C34 000:676.480 - 0.031ms returns 0
T2C34 000:676.496 JLINK_WriteReg(R13 (SP), 0x20001000)
T2C34 000:676.508 - 0.020ms returns 0
T2C34 000:676.527 JLINK_WriteReg(R14, 0x20000001)
T2C34 000:676.543 - 0.024ms returns 0
T2C34 000:676.563 JLINK_WriteReg(R15 (PC), 0x2000005E)
T2C34 000:676.592 - 0.040ms returns 0
T2C34 000:676.620 JLINK_WriteReg(XPSR, 0x01000000)
T2C34 000:676.645 - 0.035ms returns 0
T2C34 000:676.667 JLINK_WriteReg(MSP, 0x20001000)
T2C34 000:676.690 - 0.033ms returns 0
T2C34 000:676.714 JLINK_WriteReg(PSP, 0x20001000)
T2C34 000:676.739 - 0.045ms returns 0
T2C34 000:676.776 JLINK_WriteReg(CFBP, 0x00000000)
T2C34 000:676.806 - 0.036ms returns 0
T2C34 000:676.824 JLINK_SetBPEx(Addr = 0x20000000, Type = 0xFFFFFFF2)
T2C34 000:676.864   CPU_ReadMem(2 bytes @ 0x20000000)
T2C34 000:692.178 - 15.373ms returns 0x00000001
T2C34 000:692.235 JLINK_Go()
T2C34 000:692.260   CPU_WriteMem(2 bytes @ 0x20000000)
T2C34 000:726.752   CPU_ReadMem(4 bytes @ 0xE0001000)
T2C34 000:743.503   CPU_WriteMem(4 bytes @ 0xE0002008)
T2C34 000:743.524   CPU_WriteMem(4 bytes @ 0xE000200C)
T2C34 000:743.534   CPU_WriteMem(4 bytes @ 0xE0002010)
T2C34 000:743.543   CPU_WriteMem(4 bytes @ 0xE0002014)
T2C34 000:743.555   CPU_WriteMem(4 bytes @ 0xE0002018)
T2C34 000:743.564   CPU_WriteMem(4 bytes @ 0xE000201C)
T2C34 000:777.608   CPU_WriteMem(4 bytes @ 0xE0001004)
T2C34 000:829.159 - 136.942ms
T2C34 000:829.244 JLINK_IsHalted()
T2C34 000:880.950   CPU_ReadMem(2 bytes @ 0x20000000)
T2C34 000:897.562 - 68.349ms returns TRUE
T2C34 000:897.646 JLINK_ReadReg(R15 (PC))
T2C34 000:897.661 - 0.017ms returns 0x20000000
T2C34 000:897.672 JLINK_ClrBPEx(BPHandle = 0x00000001)
T2C34 000:897.680 - 0.011ms returns 0x00
T2C34 000:897.691 JLINK_ReadReg(R0)
T2C34 000:897.699 - 0.010ms returns 0x00000000
T2C34 000:898.264 JLINK_HasError()
T2C34 000:898.293 JLINK_WriteReg(R0, 0x08000000)
T2C34 000:898.306 - 0.016ms returns 0
T2C34 000:898.316 JLINK_WriteReg(R1, 0x00004000)
T2C34 000:898.323 - 0.010ms returns 0
T2C34 000:898.332 JLINK_WriteReg(R2, 0x000000FF)
T2C34 000:898.339 - 0.010ms returns 0
T2C34 000:898.347 JLINK_WriteReg(R3, 0x00000000)
T2C34 000:898.354 - 0.010ms returns 0
T2C34 000:898.363 JLINK_WriteReg(R4, 0x00000000)
T2C34 000:898.370 - 0.010ms returns 0
T2C34 000:898.378 JLINK_WriteReg(R5, 0x00000000)
T2C34 000:898.385 - 0.010ms returns 0
T2C34 000:898.394 JLINK_WriteReg(R6, 0x00000000)
T2C34 000:898.401 - 0.010ms returns 0
T2C34 000:898.410 JLINK_WriteReg(R7, 0x00000000)
T2C34 000:898.416 - 0.010ms returns 0
T2C34 000:898.425 JLINK_WriteReg(R8, 0x00000000)
T2C34 000:898.432 - 0.010ms returns 0
T2C34 000:898.440 JLINK_WriteReg(R9, 0x20000184)
T2C34 000:898.447 - 0.010ms returns 0
T2C34 000:898.456 JLINK_WriteReg(R10, 0x00000000)
T2C34 000:898.463 - 0.010ms returns 0
T2C34 000:898.472 JLINK_WriteReg(R11, 0x00000000)
T2C34 000:898.479 - 0.010ms returns 0
T2C34 000:898.487 JLINK_WriteReg(R12, 0x00000000)
T2C34 000:898.494 - 0.010ms returns 0
T2C34 000:898.504 JLINK_WriteReg(R13 (SP), 0x20001000)
T2C34 000:898.513 - 0.013ms returns 0
T2C34 000:898.524 JLINK_WriteReg(R14, 0x20000001)
T2C34 000:898.533 - 0.013ms returns 0
T2C34 000:898.544 JLINK_WriteReg(R15 (PC), 0x20000020)
T2C34 000:898.552 - 0.011ms returns 0
T2C34 000:898.561 JLINK_WriteReg(XPSR, 0x01000000)
T2C34 000:898.569 - 0.011ms returns 0
T2C34 000:898.578 JLINK_WriteReg(MSP, 0x20001000)
T2C34 000:898.585 - 0.011ms returns 0
T2C34 000:898.594 JLINK_WriteReg(PSP, 0x20001000)
T2C34 000:898.602 - 0.010ms returns 0
T2C34 000:898.611 JLINK_WriteReg(CFBP, 0x00000000)
T2C34 000:898.618 - 0.010ms returns 0
T2C34 000:898.627 JLINK_SetBPEx(Addr = 0x20000000, Type = 0xFFFFFFF2)
T2C34 000:898.636 - 0.012ms returns 0x00000002
T2C34 000:898.646 JLINK_Go()
T2C34 000:898.667   CPU_ReadMem(4 bytes @ 0xE0001000)
T2C34 000:966.995 - 68.395ms
T2C34 000:967.082 JLINK_IsHalted()
T2C34 001:001.873   CPU_ReadMem(2 bytes @ 0x20000000)
T2C34 001:018.532 - 51.482ms returns TRUE
T2C34 001:018.598 JLINK_ReadReg(R15 (PC))
T2C34 001:018.691 - 0.099ms returns 0x20000000
T2C34 001:018.720 JLINK_ClrBPEx(BPHandle = 0x00000002)
T2C34 001:018.747 - 0.030ms returns 0x00
T2C34 001:018.758 JLINK_ReadReg(R0)
T2C34 001:018.765 - 0.011ms returns 0x00000001
T2C34 001:018.777 JLINK_HasError()
T2C34 001:018.791 JLINK_WriteReg(R0, 0x08000000)
T2C34 001:018.799 - 0.011ms returns 0
T2C34 001:018.808 JLINK_WriteReg(R1, 0x00004000)
T2C34 001:018.814 - 0.024ms returns 0
T2C34 001:018.837 JLINK_WriteReg(R2, 0x000000FF)
T2C34 001:018.844 - 0.009ms returns 0
T2C34 001:018.852 JLINK_WriteReg(R3, 0x00000000)
T2C34 001:018.874 - 0.025ms returns 0
T2C34 001:018.882 JLINK_WriteReg(R4, 0x00000000)
T2C34 001:018.889 - 0.009ms returns 0
T2C34 001:018.897 JLINK_WriteReg(R5, 0x00000000)
T2C34 001:018.903 - 0.009ms returns 0
T2C34 001:018.911 JLINK_WriteReg(R6, 0x00000000)
T2C34 001:018.918 - 0.009ms returns 0
T2C34 001:018.926 JLINK_WriteReg(R7, 0x00000000)
T2C34 001:018.932 - 0.009ms returns 0
T2C34 001:018.940 JLINK_WriteReg(R8, 0x00000000)
T2C34 001:018.946 - 0.009ms returns 0
T2C34 001:018.954 JLINK_WriteReg(R9, 0x20000184)
T2C34 001:018.961 - 0.009ms returns 0
T2C34 001:018.969 JLINK_WriteReg(R10, 0x00000000)
T2C34 001:018.975 - 0.009ms returns 0
T2C34 001:018.983 JLINK_WriteReg(R11, 0x00000000)
T2C34 001:018.990 - 0.009ms returns 0
T2C34 001:018.998 JLINK_WriteReg(R12, 0x00000000)
T2C34 001:019.004 - 0.009ms returns 0
T2C34 001:019.012 JLINK_WriteReg(R13 (SP), 0x20001000)
T2C34 001:019.019 - 0.009ms returns 0
T2C34 001:019.027 JLINK_WriteReg(R14, 0x20000001)
T2C34 001:019.033 - 0.009ms returns 0
T2C34 001:019.041 JLINK_WriteReg(R15 (PC), 0x200000C6)
T2C34 001:019.048 - 0.009ms returns 0
T2C34 001:019.056 JLINK_WriteReg(XPSR, 0x01000000)
T2C34 001:019.062 - 0.009ms returns 0
T2C34 001:019.070 JLINK_WriteReg(MSP, 0x20001000)
T2C34 001:019.076 - 0.009ms returns 0
T2C34 001:019.084 JLINK_WriteReg(PSP, 0x20001000)
T2C34 001:019.091 - 0.009ms returns 0
T2C34 001:019.099 JLINK_WriteReg(CFBP, 0x00000000)
T2C34 001:019.105 - 0.009ms returns 0
T2C34 001:019.113 JLINK_SetBPEx(Addr = 0x20000000, Type = 0xFFFFFFF2)
T2C34 001:019.121 - 0.010ms returns 0x00000003
T2C34 001:019.129 JLINK_Go()
T2C34 001:019.145   CPU_ReadMem(4 bytes @ 0xE0001000)
T2C34 001:087.838 - 68.723ms
T2C34 001:087.919 JLINK_IsHalted()
T2C34 001:104.595 - 16.698ms returns FALSE
T2C34 001:104.657 JLINK_HasError()
T2C34 001:133.529 JLINK_IsHalted()
T2C34 001:156.027 - 22.533ms returns FALSE
T2C34 001:156.150 JLINK_HasError()
T2C34 001:157.489 JLINK_IsHalted()
T2C34 001:172.774 - 15.306ms returns FALSE
T2C34 001:172.828 JLINK_HasError()
T2C34 001:174.507 JLINK_IsHalted()
T2C34 001:207.327 - 32.839ms returns FALSE
T2C34 001:207.414 JLINK_HasError()
T2C34 001:210.388 JLINK_IsHalted()
T2C34 001:224.048 - 13.672ms returns FALSE
T2C34 001:224.118 JLINK_HasError()
T2C34 001:225.300 JLINK_IsHalted()
T2C34 001:258.647 - 33.365ms returns FALSE
T2C34 001:258.703 JLINK_HasError()
T2C34 001:262.259 JLINK_IsHalted()
T2C34 001:293.235 - 31.010ms returns FALSE
T2C34 001:293.304 JLINK_HasError()
T2C34 001:295.118 JLINK_IsHalted()
T2C34 001:327.921 - 32.827ms returns FALSE
T2C34 001:328.053 JLINK_HasError()
T2C34 001:337.019 JLINK_IsHalted()
T2C34 001:362.393 - 25.409ms returns FALSE
T2C34 001:362.464 JLINK_HasError()
T2C34 001:363.908 JLINK_IsHalted()
T2C34 001:379.237 - 15.362ms returns FALSE
T2C34 001:379.301 JLINK_HasError()
T2C34 001:380.921 JLINK_IsHalted()
T2C34 001:413.816 - 32.912ms returns FALSE
T2C34 001:413.871 JLINK_HasError()
T2C34 001:416.951 JLINK_IsHalted()
T2C34 001:448.604 - 31.757ms returns FALSE
T2C34 001:448.874 JLINK_HasError()
T2C34 001:450.817 JLINK_IsHalted()
T2C34 001:501.181   CPU_ReadMem(2 bytes @ 0x20000000)
T2C34 001:517.792 - 66.997ms returns TRUE
T2C34 001:517.855 JLINK_ReadReg(R15 (PC))
T2C34 001:517.870 - 0.019ms returns 0x20000000
T2C34 001:517.882 JLINK_ClrBPEx(BPHandle = 0x00000003)
T2C34 001:517.890 - 0.012ms returns 0x00
T2C34 001:517.902 JLINK_ReadReg(R0)
T2C34 001:517.909 - 0.011ms returns 0x00000000
T2C34 001:518.690 JLINK_HasError()
T2C34 001:518.720 JLINK_WriteReg(R0, 0x08004000)
T2C34 001:518.733 - 0.016ms returns 0
T2C34 001:518.742 JLINK_WriteReg(R1, 0x00004000)
T2C34 001:518.750 - 0.010ms returns 0
T2C34 001:518.758 JLINK_WriteReg(R2, 0x000000FF)
T2C34 001:518.765 - 0.010ms returns 0
T2C34 001:518.774 JLINK_WriteReg(R3, 0x00000000)
T2C34 001:518.781 - 0.010ms returns 0
T2C34 001:518.789 JLINK_WriteReg(R4, 0x00000000)
T2C34 001:518.796 - 0.010ms returns 0
T2C34 001:518.805 JLINK_WriteReg(R5, 0x00000000)
T2C34 001:518.812 - 0.010ms returns 0
T2C34 001:518.820 JLINK_WriteReg(R6, 0x00000000)
T2C34 001:518.827 - 0.010ms returns 0
T2C34 001:518.835 JLINK_WriteReg(R7, 0x00000000)
T2C34 001:518.842 - 0.010ms returns 0
T2C34 001:518.851 JLINK_WriteReg(R8, 0x00000000)
T2C34 001:518.857 - 0.010ms returns 0
T2C34 001:518.866 JLINK_WriteReg(R9, 0x20000184)
T2C34 001:518.873 - 0.010ms returns 0
T2C34 001:518.881 JLINK_WriteReg(R10, 0x00000000)
T2C34 001:518.888 - 0.010ms returns 0
T2C34 001:518.897 JLINK_WriteReg(R11, 0x00000000)
T2C34 001:518.904 - 0.010ms returns 0
T2C34 001:518.912 JLINK_WriteReg(R12, 0x00000000)
T2C34 001:518.919 - 0.010ms returns 0
T2C34 001:518.927 JLINK_WriteReg(R13 (SP), 0x20001000)
T2C34 001:518.935 - 0.011ms returns 0
T2C34 001:518.944 JLINK_WriteReg(R14, 0x20000001)
T2C34 001:518.951 - 0.010ms returns 0
T2C34 001:518.959 JLINK_WriteReg(R15 (PC), 0x20000020)
T2C34 001:518.966 - 0.010ms returns 0
T2C34 001:518.975 JLINK_WriteReg(XPSR, 0x01000000)
T2C34 001:518.982 - 0.010ms returns 0
T2C34 001:518.990 JLINK_WriteReg(MSP, 0x20001000)
T2C34 001:518.997 - 0.010ms returns 0
T2C34 001:519.006 JLINK_WriteReg(PSP, 0x20001000)
T2C34 001:519.013 - 0.010ms returns 0
T2C34 001:519.021 JLINK_WriteReg(CFBP, 0x00000000)
T2C34 001:519.028 - 0.010ms returns 0
T2C34 001:519.037 JLINK_SetBPEx(Addr = 0x20000000, Type = 0xFFFFFFF2)
T2C34 001:519.046 - 0.012ms returns 0x00000004
T2C34 001:519.055 JLINK_Go()
T2C34 001:519.074   CPU_ReadMem(4 bytes @ 0xE0001000)
T2C34 001:587.217 - 68.176ms
T2C34 001:587.300 JLINK_IsHalted()
T2C34 001:622.522   CPU_ReadMem(2 bytes @ 0x20000000)
T2C34 001:638.897 - 51.620ms returns TRUE
T2C34 001:638.963 JLINK_ReadReg(R15 (PC))
T2C34 001:638.979 - 0.019ms returns 0x20000000
T2C34 001:638.990 JLINK_ClrBPEx(BPHandle = 0x00000004)
T2C34 001:638.998 - 0.011ms returns 0x00
T2C34 001:639.010 JLINK_ReadReg(R0)
T2C34 001:639.017 - 0.010ms returns 0x00000001
T2C34 001:639.029 JLINK_HasError()
T2C34 001:639.045 JLINK_WriteReg(R0, 0x08004000)
T2C34 001:639.053 - 0.011ms returns 0
T2C34 001:639.062 JLINK_WriteReg(R1, 0x00004000)
T2C34 001:639.069 - 0.010ms returns 0
T2C34 001:639.078 JLINK_WriteReg(R2, 0x000000FF)
T2C34 001:639.084 - 0.010ms returns 0
T2C34 001:639.093 JLINK_WriteReg(R3, 0x00000000)
T2C34 001:639.100 - 0.010ms returns 0
T2C34 001:639.109 JLINK_WriteReg(R4, 0x00000000)
T2C34 001:639.115 - 0.010ms returns 0
T2C34 001:639.135 JLINK_WriteReg(R5, 0x00000000)
T2C34 001:639.143 - 0.011ms returns 0
T2C34 001:639.152 JLINK_WriteReg(R6, 0x00000000)
T2C34 001:639.164 - 0.015ms returns 0
T2C34 001:639.172 JLINK_WriteReg(R7, 0x00000000)
T2C34 001:639.179 - 0.010ms returns 0
T2C34 001:639.188 JLINK_WriteReg(R8, 0x00000000)
T2C34 001:639.194 - 0.010ms returns 0
T2C34 001:639.203 JLINK_WriteReg(R9, 0x20000184)
T2C34 001:639.210 - 0.010ms returns 0
T2C34 001:639.218 JLINK_WriteReg(R10, 0x00000000)
T2C34 001:639.225 - 0.010ms returns 0
T2C34 001:639.234 JLINK_WriteReg(R11, 0x00000000)
T2C34 001:639.240 - 0.010ms returns 0
T2C34 001:639.249 JLINK_WriteReg(R12, 0x00000000)
T2C34 001:639.256 - 0.010ms returns 0
T2C34 001:639.264 JLINK_WriteReg(R13 (SP), 0x20001000)
T2C34 001:639.272 - 0.010ms returns 0
T2C34 001:639.280 JLINK_WriteReg(R14, 0x20000001)
T2C34 001:639.287 - 0.010ms returns 0
T2C34 001:639.295 JLINK_WriteReg(R15 (PC), 0x200000C6)
T2C34 001:639.302 - 0.010ms returns 0
T2C34 001:639.311 JLINK_WriteReg(XPSR, 0x01000000)
T2C34 001:639.318 - 0.010ms returns 0
T2C34 001:639.326 JLINK_WriteReg(MSP, 0x20001000)
T2C34 001:639.337 - 0.017ms returns 0
T2C34 001:639.349 JLINK_WriteReg(PSP, 0x20001000)
T2C34 001:639.356 - 0.010ms returns 0
T2C34 001:639.365 JLINK_WriteReg(CFBP, 0x00000000)
T2C34 001:639.371 - 0.010ms returns 0
T2C34 001:639.380 JLINK_SetBPEx(Addr = 0x20000000, Type = 0xFFFFFFF2)
T2C34 001:639.388 - 0.011ms returns 0x00000005
T2C34 001:639.397 JLINK_Go()
T2C34 001:639.413   CPU_ReadMem(4 bytes @ 0xE0001000)
T2C34 001:708.308 - 68.929ms
T2C34 001:708.364 JLINK_IsHalted()
T2C34 001:725.061 - 16.718ms returns FALSE
T2C34 001:725.121 JLINK_HasError()
T2C34 001:730.007 JLINK_IsHalted()
T2C34 001:759.633 - 29.645ms returns FALSE
T2C34 001:759.705 JLINK_HasError()
T2C34 001:762.930 JLINK_IsHalted()
T2C34 001:794.257 - 31.346ms returns FALSE
T2C34 001:794.342 JLINK_HasError()
T2C34 001:796.844 JLINK_IsHalted()
T2C34 001:811.159 - 14.354ms returns FALSE
T2C34 001:811.252 JLINK_HasError()
T2C34 001:816.739 JLINK_IsHalted()
T2C34 001:845.582 - 28.875ms returns FALSE
T2C34 001:845.667 JLINK_HasError()
T2C34 001:847.274 JLINK_IsHalted()
T2C34 001:862.338 - 15.077ms returns FALSE
T2C34 001:862.408 JLINK_HasError()
T2C34 001:865.247 JLINK_IsHalted()
T2C34 001:896.975 - 31.768ms returns FALSE
T2C34 001:897.074 JLINK_HasError()
T2C34 001:898.224 JLINK_IsHalted()
T2C34 001:931.491 - 33.304ms returns FALSE
T2C34 001:931.563 JLINK_HasError()
T2C34 001:933.129 JLINK_IsHalted()
T2C34 001:965.093 - 31.986ms returns FALSE
T2C34 001:965.186 JLINK_HasError()
T2C34 001:967.998 JLINK_IsHalted()
T2C34 001:982.017 - 14.076ms returns FALSE
T2C34 001:982.163 JLINK_HasError()
T2C34 001:983.993 JLINK_IsHalted()
T2C34 002:016.477 - 32.516ms returns FALSE
T2C34 002:016.581 JLINK_HasError()
T2C34 002:017.876 JLINK_IsHalted()
T2C34 002:033.228 - 15.383ms returns FALSE
T2C34 002:033.305 JLINK_HasError()
T2C34 002:034.902 JLINK_IsHalted()
T2C34 002:086.256   CPU_ReadMem(2 bytes @ 0x20000000)
T2C34 002:102.866 - 68.011ms returns TRUE
T2C34 002:102.985 JLINK_ReadReg(R15 (PC))
T2C34 002:103.000 - 0.019ms returns 0x20000000
T2C34 002:103.011 JLINK_ClrBPEx(BPHandle = 0x00000005)
T2C34 002:103.018 - 0.011ms returns 0x00
T2C34 002:103.028 JLINK_ReadReg(R0)
T2C34 002:103.035 - 0.010ms returns 0x00000000
T2C34 002:103.513 JLINK_HasError()
T2C34 002:103.539 JLINK_WriteReg(R0, 0x00000001)
T2C34 002:103.550 - 0.015ms returns 0
T2C34 002:103.560 JLINK_WriteReg(R1, 0x00004000)
T2C34 002:103.567 - 0.010ms returns 0
T2C34 002:103.576 JLINK_WriteReg(R2, 0x000000FF)
T2C34 002:103.583 - 0.010ms returns 0
T2C34 002:103.592 JLINK_WriteReg(R3, 0x00000000)
T2C34 002:103.599 - 0.010ms returns 0
T2C34 002:103.610 JLINK_WriteReg(R4, 0x00000000)
T2C34 002:103.617 - 0.010ms returns 0
T2C34 002:103.626 JLINK_WriteReg(R5, 0x00000000)
T2C34 002:103.632 - 0.010ms returns 0
T2C34 002:103.641 JLINK_WriteReg(R6, 0x00000000)
T2C34 002:103.648 - 0.010ms returns 0
T2C34 002:103.657 JLINK_WriteReg(R7, 0x00000000)
T2C34 002:103.663 - 0.010ms returns 0
T2C34 002:103.672 JLINK_WriteReg(R8, 0x00000000)
T2C34 002:103.679 - 0.010ms returns 0
T2C34 002:103.688 JLINK_WriteReg(R9, 0x20000184)
T2C34 002:103.694 - 0.010ms returns 0
T2C34 002:103.703 JLINK_WriteReg(R10, 0x00000000)
T2C34 002:103.710 - 0.010ms returns 0
T2C34 002:103.718 JLINK_WriteReg(R11, 0x00000000)
T2C34 002:103.725 - 0.010ms returns 0
T2C34 002:103.734 JLINK_WriteReg(R12, 0x00000000)
T2C34 002:103.741 - 0.010ms returns 0
T2C34 002:103.749 JLINK_WriteReg(R13 (SP), 0x20001000)
T2C34 002:103.757 - 0.010ms returns 0
T2C34 002:103.765 JLINK_WriteReg(R14, 0x20000001)
T2C34 002:103.772 - 0.010ms returns 0
T2C34 002:103.781 JLINK_WriteReg(R15 (PC), 0x2000008C)
T2C34 002:103.788 - 0.010ms returns 0
T2C34 002:103.796 JLINK_WriteReg(XPSR, 0x01000000)
T2C34 002:103.803 - 0.010ms returns 0
T2C34 002:103.812 JLINK_WriteReg(MSP, 0x20001000)
T2C34 002:103.818 - 0.010ms returns 0
T2C34 002:103.827 JLINK_WriteReg(PSP, 0x20001000)
T2C34 002:103.834 - 0.010ms returns 0
T2C34 002:103.842 JLINK_WriteReg(CFBP, 0x00000000)
T2C34 002:103.849 - 0.013ms returns 0
T2C34 002:103.864 JLINK_SetBPEx(Addr = 0x20000000, Type = 0xFFFFFFF2)
T2C34 002:103.873 - 0.012ms returns 0x00000006
T2C34 002:103.882 JLINK_Go()
T2C34 002:103.900   CPU_ReadMem(4 bytes @ 0xE0001000)
T2C34 002:170.841 - 66.993ms
T2C34 002:170.932 JLINK_IsHalted()
T2C34 002:223.550   CPU_ReadMem(2 bytes @ 0x20000000)
T2C34 002:240.247 - 69.330ms returns TRUE
T2C34 002:240.372 JLINK_ReadReg(R15 (PC))
T2C34 002:240.386 - 0.017ms returns 0x20000000
T2C34 002:240.398 JLINK_ClrBPEx(BPHandle = 0x00000006)
T2C34 002:240.406 - 0.011ms returns 0x00
T2C34 002:240.417 JLINK_ReadReg(R0)
T2C34 002:240.424 - 0.010ms returns 0x00000000
T2C34 002:301.611 JLINK_WriteMem(0x20000000, 0x188 Bytes, ...)
T2C34 002:301.628   Data:  00 BE 0A E0 0D 78 2D 06 68 40 08 24 40 00 00 D3 ...
T2C34 002:301.651   CPU_WriteMem(392 bytes @ 0x20000000)
T2C34 002:310.792 - 9.215ms returns 0x188
T2C34 002:310.950 JLINK_HasError()
T2C34 002:310.963 JLINK_WriteReg(R0, 0x08000000)
T2C34 002:310.974 - 0.014ms returns 0
T2C34 002:310.983 JLINK_WriteReg(R1, 0x007A1200)
T2C34 002:310.989 - 0.010ms returns 0
T2C34 002:310.998 JLINK_WriteReg(R2, 0x00000002)
T2C34 002:311.004 - 0.009ms returns 0
T2C34 002:311.013 JLINK_WriteReg(R3, 0x00000000)
T2C34 002:311.019 - 0.009ms returns 0
T2C34 002:311.028 JLINK_WriteReg(R4, 0x00000000)
T2C34 002:311.034 - 0.009ms returns 0
T2C34 002:311.042 JLINK_WriteReg(R5, 0x00000000)
T2C34 002:311.049 - 0.012ms returns 0
T2C34 002:311.060 JLINK_WriteReg(R6, 0x00000000)
T2C34 002:311.067 - 0.010ms returns 0
T2C34 002:311.090 JLINK_WriteReg(R7, 0x00000000)
T2C34 002:311.097 - 0.009ms returns 0
T2C34 002:311.105 JLINK_WriteReg(R8, 0x00000000)
T2C34 002:311.111 - 0.009ms returns 0
T2C34 002:311.119 JLINK_WriteReg(R9, 0x20000184)
T2C34 002:311.125 - 0.009ms returns 0
T2C34 002:311.133 JLINK_WriteReg(R10, 0x00000000)
T2C34 002:311.140 - 0.009ms returns 0
T2C34 002:311.148 JLINK_WriteReg(R11, 0x00000000)
T2C34 002:311.154 - 0.009ms returns 0
T2C34 002:311.162 JLINK_WriteReg(R12, 0x00000000)
T2C34 002:311.169 - 0.009ms returns 0
T2C34 002:311.177 JLINK_WriteReg(R13 (SP), 0x20001000)
T2C34 002:311.184 - 0.010ms returns 0
T2C34 002:311.192 JLINK_WriteReg(R14, 0x20000001)
T2C34 002:311.198 - 0.009ms returns 0
T2C34 002:311.206 JLINK_WriteReg(R15 (PC), 0x2000005E)
T2C34 002:311.213 - 0.009ms returns 0
T2C34 002:311.221 JLINK_WriteReg(XPSR, 0x01000000)
T2C34 002:311.227 - 0.009ms returns 0
T2C34 002:311.235 JLINK_WriteReg(MSP, 0x20001000)
T2C34 002:311.242 - 0.009ms returns 0
T2C34 002:311.249 JLINK_WriteReg(PSP, 0x20001000)
T2C34 002:311.256 - 0.009ms returns 0
T2C34 002:311.264 JLINK_WriteReg(CFBP, 0x00000000)
T2C34 002:311.270 - 0.009ms returns 0
T2C34 002:311.278 JLINK_SetBPEx(Addr = 0x20000000, Type = 0xFFFFFFF2)
T2C34 002:311.291   CPU_ReadMem(2 bytes @ 0x20000000)
T2C34 002:327.598 - 16.352ms returns 0x00000007
T2C34 002:327.694 JLINK_Go()
T2C34 002:327.709   CPU_WriteMem(2 bytes @ 0x20000000)
T2C34 002:362.487   CPU_ReadMem(4 bytes @ 0xE0001000)
T2C34 002:413.682 - 86.002ms
T2C34 002:413.771 JLINK_IsHalted()
T2C34 002:449.113   CPU_ReadMem(2 bytes @ 0x20000000)
T2C34 002:465.320 - 51.585ms returns TRUE
T2C34 002:465.433 JLINK_ReadReg(R15 (PC))
T2C34 002:465.447 - 0.017ms returns 0x20000000
T2C34 002:465.458 JLINK_ClrBPEx(BPHandle = 0x00000007)
T2C34 002:465.466 - 0.011ms returns 0x00
T2C34 002:465.477 JLINK_ReadReg(R0)
T2C34 002:465.484 - 0.010ms returns 0x00000000
T2C34 002:465.909 JLINK_WriteMem(0x20000188, 0x278 Bytes, ...)
T2C34 002:465.920   Data:  40 05 00 20 9D 01 00 08 C9 23 00 08 AD 1D 00 08 ...
T2C34 002:465.940   CPU_WriteMem(632 bytes @ 0x20000188)
T2C34 002:501.917 - 36.040ms returns 0x278
T2C34 002:502.021 JLINK_WriteMem(0x20000400, 0x188 Bytes, ...)
T2C34 002:502.030   Data:  47 D0 27 0D C7 F3 0A 00 C3 F3 0A 51 02 90 40 1A ...
T2C34 002:502.073   CPU_WriteMem(392 bytes @ 0x20000400)
T2C34 002:520.084 - 18.081ms returns 0x188
T2C34 002:520.176 JLINK_HasError()
T2C34 002:520.199 JLINK_WriteReg(R0, 0x08000000)
T2C34 002:520.215 - 0.098ms returns 0
T2C34 002:520.309 JLINK_WriteReg(R1, 0x00000400)
T2C34 002:520.317 - 0.012ms returns 0
T2C34 002:520.326 JLINK_WriteReg(R2, 0x20000188)
T2C34 002:520.333 - 0.025ms returns 0
T2C34 002:520.357 JLINK_WriteReg(R3, 0x00000000)
T2C34 002:520.384 - 0.030ms returns 0
T2C34 002:520.392 JLINK_WriteReg(R4, 0x00000000)
T2C34 002:520.399 - 0.010ms returns 0
T2C34 002:520.408 JLINK_WriteReg(R5, 0x00000000)
T2C34 002:520.430 - 0.025ms returns 0
T2C34 002:520.438 JLINK_WriteReg(R6, 0x00000000)
T2C34 002:520.445 - 0.009ms returns 0
T2C34 002:520.453 JLINK_WriteReg(R7, 0x00000000)
T2C34 002:520.459 - 0.009ms returns 0
T2C34 002:520.468 JLINK_WriteReg(R8, 0x00000000)
T2C34 002:520.474 - 0.009ms returns 0
T2C34 002:520.483 JLINK_WriteReg(R9, 0x20000184)
T2C34 002:520.489 - 0.009ms returns 0
T2C34 002:520.497 JLINK_WriteReg(R10, 0x00000000)
T2C34 002:520.504 - 0.009ms returns 0
T2C34 002:520.512 JLINK_WriteReg(R11, 0x00000000)
T2C34 002:520.519 - 0.009ms returns 0
T2C34 002:520.527 JLINK_WriteReg(R12, 0x00000000)
T2C34 002:520.534 - 0.009ms returns 0
T2C34 002:520.542 JLINK_WriteReg(R13 (SP), 0x20001000)
T2C34 002:520.549 - 0.010ms returns 0
T2C34 002:520.557 JLINK_WriteReg(R14, 0x20000001)
T2C34 002:520.564 - 0.009ms returns 0
T2C34 002:520.572 JLINK_WriteReg(R15 (PC), 0x20000112)
T2C34 002:520.579 - 0.010ms returns 0
T2C34 002:520.587 JLINK_WriteReg(XPSR, 0x01000000)
T2C34 002:520.594 - 0.009ms returns 0
T2C34 002:520.602 JLINK_WriteReg(MSP, 0x20001000)
T2C34 002:520.609 - 0.009ms returns 0
T2C34 002:520.617 JLINK_WriteReg(PSP, 0x20001000)
T2C34 002:520.624 - 0.009ms returns 0
T2C34 002:520.632 JLINK_WriteReg(CFBP, 0x00000000)
T2C34 002:520.638 - 0.009ms returns 0
T2C34 002:520.647 JLINK_SetBPEx(Addr = 0x20000000, Type = 0xFFFFFFF2)
T2C34 002:520.655 - 0.011ms returns 0x00000008
T2C34 002:520.684 JLINK_Go()
T2C34 002:520.704   CPU_ReadMem(4 bytes @ 0xE0001000)
T2C34 002:589.422 - 68.771ms
T2C34 002:589.512 JLINK_IsHalted()
T2C34 002:624.411   CPU_ReadMem(2 bytes @ 0x20000000)
T2C34 002:641.086 - 51.610ms returns TRUE
T2C34 002:641.178 JLINK_ReadReg(R15 (PC))
T2C34 002:641.193 - 0.018ms returns 0x20000000
T2C34 002:641.204 JLINK_ClrBPEx(BPHandle = 0x00000008)
T2C34 002:641.212 - 0.011ms returns 0x00
T2C34 002:641.223 JLINK_ReadReg(R0)
T2C34 002:641.230 - 0.010ms returns 0x00000000
T2C34 002:642.026 JLINK_WriteMem(0x20000188, 0x278 Bytes, ...)
T2C34 002:642.047   Data:  93 2C 04 FB 0C 54 27 05 02 9D 4F EA 06 58 47 EA ...
T2C34 002:642.071   CPU_WriteMem(632 bytes @ 0x20000188)
T2C34 002:677.953 - 35.986ms returns 0x278
T2C34 002:678.117 JLINK_WriteMem(0x20000400, 0x188 Bytes, ...)
T2C34 002:678.127   Data:  50 EA 01 04 04 BF 10 BC 70 47 49 B1 CC F1 20 04 ...
T2C34 002:678.151   CPU_WriteMem(392 bytes @ 0x20000400)
T2C34 002:695.850 - 17.772ms returns 0x188
T2C34 002:695.923 JLINK_HasError()
T2C34 002:695.975 JLINK_WriteReg(R0, 0x08000400)
T2C34 002:695.987 - 0.016ms returns 0
T2C34 002:695.999 JLINK_WriteReg(R1, 0x00000400)
T2C34 002:696.006 - 0.010ms returns 0
T2C34 002:696.016 JLINK_WriteReg(R2, 0x20000188)
T2C34 002:696.023 - 0.010ms returns 0
T2C34 002:696.034 JLINK_WriteReg(R3, 0x00000000)
T2C34 002:696.041 - 0.010ms returns 0
T2C34 002:696.051 JLINK_WriteReg(R4, 0x00000000)
T2C34 002:696.058 - 0.010ms returns 0
T2C34 002:696.068 JLINK_WriteReg(R5, 0x00000000)
T2C34 002:696.075 - 0.010ms returns 0
T2C34 002:696.099 JLINK_WriteReg(R6, 0x00000000)
T2C34 002:696.105 - 0.030ms returns 0
T2C34 002:696.135 JLINK_WriteReg(R7, 0x00000000)
T2C34 002:696.141 - 0.010ms returns 0
T2C34 002:696.151 JLINK_WriteReg(R8, 0x00000000)
T2C34 002:696.158 - 0.010ms returns 0
T2C34 002:696.184 JLINK_WriteReg(R9, 0x20000184)
T2C34 002:696.192 - 0.012ms returns 0
T2C34 002:696.202 JLINK_WriteReg(R10, 0x00000000)
T2C34 002:696.209 - 0.010ms returns 0
T2C34 002:696.219 JLINK_WriteReg(R11, 0x00000000)
T2C34 002:696.226 - 0.009ms returns 0
T2C34 002:696.236 JLINK_WriteReg(R12, 0x00000000)
T2C34 002:696.242 - 0.009ms returns 0
T2C34 002:696.252 JLINK_WriteReg(R13 (SP), 0x20001000)
T2C34 002:696.316 - 0.070ms returns 0
T2C34 002:696.330 JLINK_WriteReg(R14, 0x20000001)
T2C34 002:696.357 - 0.030ms returns 0
T2C34 002:696.370 JLINK_WriteReg(R15 (PC), 0x20000112)
T2C34 002:696.377 - 0.010ms returns 0
T2C34 002:696.385 JLINK_WriteReg(XPSR, 0x01000000)
T2C34 002:696.392 - 0.009ms returns 0
T2C34 002:696.415 JLINK_WriteReg(MSP, 0x20001000)
T2C34 002:696.422 - 0.009ms returns 0
T2C34 002:696.430 JLINK_WriteReg(PSP, 0x20001000)
T2C34 002:696.436 - 0.009ms returns 0
T2C34 002:696.444 JLINK_WriteReg(CFBP, 0x00000000)
T2C34 002:696.450 - 0.009ms returns 0
T2C34 002:696.459 JLINK_SetBPEx(Addr = 0x20000000, Type = 0xFFFFFFF2)
T2C34 002:696.466 - 0.011ms returns 0x00000009
T2C34 002:696.475 JLINK_Go()
T2C34 002:696.490   CPU_ReadMem(4 bytes @ 0xE0001000)
T2C34 002:765.298 - 68.841ms
T2C34 002:765.371 JLINK_IsHalted()
T2C34 002:800.370   CPU_ReadMem(2 bytes @ 0x20000000)
T2C34 002:816.966 - 51.626ms returns TRUE
T2C34 002:817.029 JLINK_ReadReg(R15 (PC))
T2C34 002:817.062 - 0.056ms returns 0x20000000
T2C34 002:817.091 JLINK_ClrBPEx(BPHandle = 0x00000009)
T2C34 002:817.099 - 0.011ms returns 0x00
T2C34 002:817.110 JLINK_ReadReg(R0)
T2C34 002:817.117 - 0.010ms returns 0x00000000
T2C34 002:817.815 JLINK_WriteMem(0x20000188, 0x278 Bytes, ...)
T2C34 002:817.827   Data:  BD E8 F0 8F 20 46 00 99 F9 E7 C1 F3 0A 52 C1 F3 ...
T2C34 002:817.845   CPU_WriteMem(632 bytes @ 0x20000188)
T2C34 002:853.586 - 35.806ms returns 0x278
T2C34 002:853.652 JLINK_WriteMem(0x20000400, 0x188 Bytes, ...)
T2C34 002:853.681   Data:  17 6A 03 FA 06 F4 0B 69 A7 43 B3 40 3B 43 13 62 ...
T2C34 002:853.723   CPU_WriteMem(392 bytes @ 0x20000400)
T2C34 002:871.756 - 18.120ms returns 0x188
T2C34 002:871.859 JLINK_HasError()
T2C34 002:871.878 JLINK_WriteReg(R0, 0x08000800)
T2C34 002:871.890 - 0.015ms returns 0
T2C34 002:871.899 JLINK_WriteReg(R1, 0x00000400)
T2C34 002:871.906 - 0.010ms returns 0
T2C34 002:871.915 JLINK_WriteReg(R2, 0x20000188)
T2C34 002:871.937 - 0.025ms returns 0
T2C34 002:871.965 JLINK_WriteReg(R3, 0x00000000)
T2C34 002:871.972 - 0.010ms returns 0
T2C34 002:871.981 JLINK_WriteReg(R4, 0x00000000)
T2C34 002:871.987 - 0.010ms returns 0
T2C34 002:871.996 JLINK_WriteReg(R5, 0x00000000)
T2C34 002:872.020 - 0.027ms returns 0
T2C34 002:872.028 JLINK_WriteReg(R6, 0x00000000)
T2C34 002:872.035 - 0.009ms returns 0
T2C34 002:872.043 JLINK_WriteReg(R7, 0x00000000)
T2C34 002:872.050 - 0.009ms returns 0
T2C34 002:872.058 JLINK_WriteReg(R8, 0x00000000)
T2C34 002:872.064 - 0.009ms returns 0
T2C34 002:872.073 JLINK_WriteReg(R9, 0x20000184)
T2C34 002:872.079 - 0.009ms returns 0
T2C34 002:872.087 JLINK_WriteReg(R10, 0x00000000)
T2C34 002:872.094 - 0.009ms returns 0
T2C34 002:872.102 JLINK_WriteReg(R11, 0x00000000)
T2C34 002:872.109 - 0.009ms returns 0
T2C34 002:872.117 JLINK_WriteReg(R12, 0x00000000)
T2C34 002:872.124 - 0.009ms returns 0
T2C34 002:872.132 JLINK_WriteReg(R13 (SP), 0x20001000)
T2C34 002:872.139 - 0.010ms returns 0
T2C34 002:872.148 JLINK_WriteReg(R14, 0x20000001)
T2C34 002:872.154 - 0.009ms returns 0
T2C34 002:872.163 JLINK_WriteReg(R15 (PC), 0x20000112)
T2C34 002:872.171 - 0.011ms returns 0
T2C34 002:872.179 JLINK_WriteReg(XPSR, 0x01000000)
T2C34 002:872.240 - 0.064ms returns 0
T2C34 002:872.257 JLINK_WriteReg(MSP, 0x20001000)
T2C34 002:872.275 - 0.021ms returns 0
T2C34 002:872.285 JLINK_WriteReg(PSP, 0x20001000)
T2C34 002:872.293 - 0.010ms returns 0
T2C34 002:872.302 JLINK_WriteReg(CFBP, 0x00000000)
T2C34 002:872.309 - 0.010ms returns 0
T2C34 002:872.318 JLINK_SetBPEx(Addr = 0x20000000, Type = 0xFFFFFFF2)
T2C34 002:872.327 - 0.012ms returns 0x0000000A
T2C34 002:872.336 JLINK_Go()
T2C34 002:872.355   CPU_ReadMem(4 bytes @ 0xE0001000)
T2C34 002:941.142 - 68.830ms
T2C34 002:941.206 JLINK_IsHalted()
T2C34 002:976.138   CPU_ReadMem(2 bytes @ 0x20000000)
T2C34 002:992.769 - 51.577ms returns TRUE
T2C34 002:992.850 JLINK_ReadReg(R15 (PC))
T2C34 002:992.863 - 0.016ms returns 0x20000000
T2C34 002:992.875 JLINK_ClrBPEx(BPHandle = 0x0000000A)
T2C34 002:992.942 - 0.074ms returns 0x00
T2C34 002:992.977 JLINK_ReadReg(R0)
T2C34 002:992.985 - 0.011ms returns 0x00000000
T2C34 002:993.644 JLINK_WriteMem(0x20000188, 0x278 Bytes, ...)
T2C34 002:993.656   Data:  0F 6A 0E FB 06 F6 C1 F2 62 03 A6 FB 03 36 27 F0 ...
T2C34 002:993.673   CPU_WriteMem(632 bytes @ 0x20000188)
T2C34 003:029.362 - 35.751ms returns 0x278
T2C34 003:029.452 JLINK_WriteMem(0x20000400, 0x188 Bytes, ...)
T2C34 003:029.461   Data:  CD F8 00 90 01 F0 B8 F8 00 28 7F F4 82 AF 20 68 ...
T2C34 003:029.507   CPU_WriteMem(392 bytes @ 0x20000400)
T2C34 003:064.374 - 34.977ms returns 0x188
T2C34 003:064.509 JLINK_HasError()
T2C34 003:064.536 JLINK_WriteReg(R0, 0x08000C00)
T2C34 003:064.566 - 0.039ms returns 0
T2C34 003:064.587 JLINK_WriteReg(R1, 0x00000400)
T2C34 003:064.599 - 0.016ms returns 0
T2C34 003:064.663 JLINK_WriteReg(R2, 0x20000188)
T2C34 003:064.673 - 0.013ms returns 0
T2C34 003:064.684 JLINK_WriteReg(R3, 0x00000000)
T2C34 003:064.691 - 0.010ms returns 0
T2C34 003:064.701 JLINK_WriteReg(R4, 0x00000000)
T2C34 003:064.709 - 0.010ms returns 0
T2C34 003:064.720 JLINK_WriteReg(R5, 0x00000000)
T2C34 003:064.727 - 0.011ms returns 0
T2C34 003:064.738 JLINK_WriteReg(R6, 0x00000000)
T2C34 003:064.759 - 0.025ms returns 0
T2C34 003:064.770 JLINK_WriteReg(R7, 0x00000000)
T2C34 003:064.777 - 0.010ms returns 0
T2C34 003:064.788 JLINK_WriteReg(R8, 0x00000000)
T2C34 003:064.795 - 0.010ms returns 0
T2C34 003:064.805 JLINK_WriteReg(R9, 0x20000184)
T2C34 003:064.812 - 0.010ms returns 0
T2C34 003:064.822 JLINK_WriteReg(R10, 0x00000000)
T2C34 003:064.829 - 0.010ms returns 0
T2C34 003:064.839 JLINK_WriteReg(R11, 0x00000000)
T2C34 003:064.846 - 0.010ms returns 0
T2C34 003:064.856 JLINK_WriteReg(R12, 0x00000000)
T2C34 003:064.863 - 0.010ms returns 0
T2C34 003:064.874 JLINK_WriteReg(R13 (SP), 0x20001000)
T2C34 003:064.881 - 0.011ms returns 0
T2C34 003:064.891 JLINK_WriteReg(R14, 0x20000001)
T2C34 003:064.899 - 0.011ms returns 0
T2C34 003:064.910 JLINK_WriteReg(R15 (PC), 0x20000112)
T2C34 003:064.918 - 0.011ms returns 0
T2C34 003:064.929 JLINK_WriteReg(XPSR, 0x01000000)
T2C34 003:064.938 - 0.013ms returns 0
T2C34 003:064.949 JLINK_WriteReg(MSP, 0x20001000)
T2C34 003:064.958 - 0.012ms returns 0
T2C34 003:064.970 JLINK_WriteReg(PSP, 0x20001000)
T2C34 003:064.980 - 0.014ms returns 0
T2C34 003:064.991 JLINK_WriteReg(CFBP, 0x00000000)
T2C34 003:064.999 - 0.010ms returns 0
T2C34 003:065.009 JLINK_SetBPEx(Addr = 0x20000000, Type = 0xFFFFFFF2)
T2C34 003:065.019 - 0.013ms returns 0x0000000B
T2C34 003:065.030 JLINK_Go()
T2C34 003:065.049   CPU_ReadMem(4 bytes @ 0xE0001000)
T2C34 003:133.805 - 68.825ms
T2C34 003:133.960 JLINK_IsHalted()
T2C34 003:168.696   CPU_ReadMem(2 bytes @ 0x20000000)
T2C34 003:185.237 - 51.306ms returns TRUE
T2C34 003:185.337 JLINK_ReadReg(R15 (PC))
T2C34 003:185.351 - 0.017ms returns 0x20000000
T2C34 003:185.362 JLINK_ClrBPEx(BPHandle = 0x0000000B)
T2C34 003:185.370 - 0.011ms returns 0x00
T2C34 003:185.381 JLINK_ReadReg(R0)
T2C34 003:185.389 - 0.010ms returns 0x00000000
T2C34 003:219.914 JLINK_WriteMem(0x20000188, 0x278 Bytes, ...)
T2C34 003:219.941   Data:  90 1E 20 85 D4 E7 20 6C 04 28 C3 D1 20 68 01 68 ...
T2C34 003:219.967   CPU_WriteMem(632 bytes @ 0x20000188)
T2C34 003:256.368 - 36.470ms returns 0x278
T2C34 003:256.473 JLINK_WriteMem(0x20000400, 0x188 Bytes, ...)
T2C34 003:256.482   Data:  51 5C 40 F2 10 02 20 FA 01 F1 40 F2 18 00 C2 F2 ...
T2C34 003:256.504   CPU_WriteMem(392 bytes @ 0x20000400)
T2C34 003:274.569 - 18.128ms returns 0x188
T2C34 003:274.674 JLINK_HasError()
T2C34 003:274.691 JLINK_WriteReg(R0, 0x08001000)
T2C34 003:274.705 - 0.016ms returns 0
T2C34 003:274.714 JLINK_WriteReg(R1, 0x00000400)
T2C34 003:274.721 - 0.010ms returns 0
T2C34 003:274.730 JLINK_WriteReg(R2, 0x20000188)
T2C34 003:274.737 - 0.010ms returns 0
T2C34 003:274.745 JLINK_WriteReg(R3, 0x00000000)
T2C34 003:274.752 - 0.010ms returns 0
T2C34 003:274.761 JLINK_WriteReg(R4, 0x00000000)
T2C34 003:274.767 - 0.025ms returns 0
T2C34 003:274.793 JLINK_WriteReg(R5, 0x00000000)
T2C34 003:274.826 - 0.037ms returns 0
T2C34 003:274.853 JLINK_WriteReg(R6, 0x00000000)
T2C34 003:274.859 - 0.025ms returns 0
T2C34 003:274.867 JLINK_WriteReg(R7, 0x00000000)
T2C34 003:274.874 - 0.024ms returns 0
T2C34 003:274.897 JLINK_WriteReg(R8, 0x00000000)
T2C34 003:274.904 - 0.009ms returns 0
T2C34 003:274.912 JLINK_WriteReg(R9, 0x20000184)
T2C34 003:274.918 - 0.009ms returns 0
T2C34 003:274.926 JLINK_WriteReg(R10, 0x00000000)
T2C34 003:274.932 - 0.009ms returns 0
T2C34 003:274.940 JLINK_WriteReg(R11, 0x00000000)
T2C34 003:274.947 - 0.009ms returns 0
T2C34 003:274.955 JLINK_WriteReg(R12, 0x00000000)
T2C34 003:274.961 - 0.009ms returns 0
T2C34 003:274.969 JLINK_WriteReg(R13 (SP), 0x20001000)
T2C34 003:274.976 - 0.010ms returns 0
T2C34 003:274.984 JLINK_WriteReg(R14, 0x20000001)
T2C34 003:274.991 - 0.009ms returns 0
T2C34 003:274.999 JLINK_WriteReg(R15 (PC), 0x20000112)
T2C34 003:275.006 - 0.009ms returns 0
T2C34 003:275.014 JLINK_WriteReg(XPSR, 0x01000000)
T2C34 003:275.020 - 0.009ms returns 0
T2C34 003:275.028 JLINK_WriteReg(MSP, 0x20001000)
T2C34 003:275.034 - 0.009ms returns 0
T2C34 003:275.042 JLINK_WriteReg(PSP, 0x20001000)
T2C34 003:275.049 - 0.009ms returns 0
T2C34 003:275.057 JLINK_WriteReg(CFBP, 0x00000000)
T2C34 003:275.063 - 0.009ms returns 0
T2C34 003:275.071 JLINK_SetBPEx(Addr = 0x20000000, Type = 0xFFFFFFF2)
T2C34 003:275.079 - 0.010ms returns 0x0000000C
T2C34 003:275.091 JLINK_Go()
T2C34 003:275.107   CPU_ReadMem(4 bytes @ 0xE0001000)
T2C34 003:343.805 - 68.734ms
T2C34 003:343.866 JLINK_IsHalted()
T2C34 003:378.862   CPU_ReadMem(2 bytes @ 0x20000000)
T2C34 003:395.435 - 51.583ms returns TRUE
T2C34 003:395.533 JLINK_ReadReg(R15 (PC))
T2C34 003:395.568 - 0.037ms returns 0x20000000
T2C34 003:395.580 JLINK_ClrBPEx(BPHandle = 0x0000000C)
T2C34 003:395.588 - 0.011ms returns 0x00
T2C34 003:395.599 JLINK_ReadReg(R0)
T2C34 003:395.606 - 0.010ms returns 0x00000000
T2C34 003:430.132 JLINK_WriteMem(0x20000188, 0x278 Bytes, ...)
T2C34 003:430.172   Data:  8E E0 B0 68 00 F0 0C 00 08 28 02 D1 70 68 40 02 ...
T2C34 003:430.196   CPU_WriteMem(632 bytes @ 0x20000188)
T2C34 003:448.809 - 18.712ms returns 0x278
T2C34 003:448.896 JLINK_WriteMem(0x20000400, 0x188 Bytes, ...)
T2C34 003:448.906   Data:  04 00 30 67 30 6F 40 F0 01 00 30 67 FF F7 66 FA ...
T2C34 003:448.927   CPU_WriteMem(392 bytes @ 0x20000400)
T2C34 003:484.598 - 35.723ms returns 0x188
T2C34 003:484.655 JLINK_HasError()
T2C34 003:484.670 JLINK_WriteReg(R0, 0x08001400)
T2C34 003:484.684 - 0.016ms returns 0
T2C34 003:484.695 JLINK_WriteReg(R1, 0x00000400)
T2C34 003:484.703 - 0.011ms returns 0
T2C34 003:484.713 JLINK_WriteReg(R2, 0x20000188)
T2C34 003:484.721 - 0.010ms returns 0
T2C34 003:484.732 JLINK_WriteReg(R3, 0x00000000)
T2C34 003:484.739 - 0.010ms returns 0
T2C34 003:484.749 JLINK_WriteReg(R4, 0x00000000)
T2C34 003:484.757 - 0.010ms returns 0
T2C34 003:484.767 JLINK_WriteReg(R5, 0x00000000)
T2C34 003:484.774 - 0.010ms returns 0
T2C34 003:484.785 JLINK_WriteReg(R6, 0x00000000)
T2C34 003:484.792 - 0.010ms returns 0
T2C34 003:484.802 JLINK_WriteReg(R7, 0x00000000)
T2C34 003:484.809 - 0.010ms returns 0
T2C34 003:484.820 JLINK_WriteReg(R8, 0x00000000)
T2C34 003:484.827 - 0.010ms returns 0
T2C34 003:484.837 JLINK_WriteReg(R9, 0x20000184)
T2C34 003:484.844 - 0.010ms returns 0
T2C34 003:484.855 JLINK_WriteReg(R10, 0x00000000)
T2C34 003:484.862 - 0.010ms returns 0
T2C34 003:484.873 JLINK_WriteReg(R11, 0x00000000)
T2C34 003:484.880 - 0.010ms returns 0
T2C34 003:484.890 JLINK_WriteReg(R12, 0x00000000)
T2C34 003:484.898 - 0.010ms returns 0
T2C34 003:484.908 JLINK_WriteReg(R13 (SP), 0x20001000)
T2C34 003:484.916 - 0.011ms returns 0
T2C34 003:484.926 JLINK_WriteReg(R14, 0x20000001)
T2C34 003:484.933 - 0.010ms returns 0
T2C34 003:484.944 JLINK_WriteReg(R15 (PC), 0x20000112)
T2C34 003:484.951 - 0.010ms returns 0
T2C34 003:484.961 JLINK_WriteReg(XPSR, 0x01000000)
T2C34 003:484.968 - 0.010ms returns 0
T2C34 003:484.979 JLINK_WriteReg(MSP, 0x20001000)
T2C34 003:484.987 - 0.014ms returns 0
T2C34 003:485.004 JLINK_WriteReg(PSP, 0x20001000)
T2C34 003:485.012 - 0.012ms returns 0
T2C34 003:485.024 JLINK_WriteReg(CFBP, 0x00000000)
T2C34 003:485.034 - 0.013ms returns 0
T2C34 003:485.046 JLINK_SetBPEx(Addr = 0x20000000, Type = 0xFFFFFFF2)
T2C34 003:485.058 - 0.016ms returns 0x0000000D
T2C34 003:485.070 JLINK_Go()
T2C34 003:485.089   CPU_ReadMem(4 bytes @ 0xE0001000)
T2C34 003:554.026 - 68.976ms
T2C34 003:554.118 JLINK_IsHalted()
T2C34 003:589.105   CPU_ReadMem(2 bytes @ 0x20000000)
T2C34 003:605.611 - 51.510ms returns TRUE
T2C34 003:605.662 JLINK_ReadReg(R15 (PC))
T2C34 003:605.677 - 0.017ms returns 0x20000000
T2C34 003:605.688 JLINK_ClrBPEx(BPHandle = 0x0000000D)
T2C34 003:605.697 - 0.011ms returns 0x00
T2C34 003:605.711 JLINK_ReadReg(R0)
T2C34 003:605.718 - 0.010ms returns 0x00000000
T2C34 003:606.595 JLINK_WriteMem(0x20000188, 0x278 Bytes, ...)
T2C34 003:606.614   Data:  00 43 C4 F2 01 03 9A 42 04 D1 49 68 2C F0 80 03 ...
T2C34 003:606.649   CPU_WriteMem(632 bytes @ 0x20000188)
T2C34 003:642.487 - 35.958ms returns 0x278
T2C34 003:642.655 JLINK_WriteMem(0x20000400, 0x188 Bytes, ...)
T2C34 003:642.676   Data:  02 68 11 43 01 60 00 20 00 21 84 F8 3C 10 B0 BD ...
T2C34 003:642.737   CPU_WriteMem(392 bytes @ 0x20000400)
T2C34 003:660.351 - 17.722ms returns 0x188
T2C34 003:660.419 JLINK_HasError()
T2C34 003:660.435 JLINK_WriteReg(R0, 0x08001800)
T2C34 003:660.449 - 0.017ms returns 0
T2C34 003:660.460 JLINK_WriteReg(R1, 0x00000400)
T2C34 003:660.468 - 0.011ms returns 0
T2C34 003:660.479 JLINK_WriteReg(R2, 0x20000188)
T2C34 003:660.486 - 0.010ms returns 0
T2C34 003:660.497 JLINK_WriteReg(R3, 0x00000000)
T2C34 003:660.504 - 0.010ms returns 0
T2C34 003:660.514 JLINK_WriteReg(R4, 0x00000000)
T2C34 003:660.522 - 0.010ms returns 0
T2C34 003:660.532 JLINK_WriteReg(R5, 0x00000000)
T2C34 003:660.540 - 0.010ms returns 0
